T0548 000:013.710   SEGGER J-Link V8.16 Log File
T0548 000:013.916   DLL Compiled: Feb 26 2025 12:07:26
T0548 000:013.930   Logging started @ 2025-10-10 21:49
T0548 000:013.943   Process: C:\Users\wassi\OneDrive\Bureau\tools\Keil_v5\UV4\UV4.exe
T0548 000:013.967 - 13.955ms 
T0548 000:014.024 JLINK_SetWarnOutHandler(...)
T0548 000:014.040 - 0.021ms 
T0548 000:014.062 JLINK_OpenEx(...)
T0548 000:020.582   Firmware: J-Link V10 compiled Jan 30 2023 11:28:07
T0548 000:021.445   Firmware: J-Link V10 compiled Jan 30 2023 11:28:07
T0548 000:021.721   Decompressing FW timestamp took 233 us
T0548 000:023.571   Hardware: V10.10
T0548 000:023.604   S/N: 50120556
T0548 000:023.622   OEM: SEGGER
T0548 000:023.639   Feature(s): GDB
T0548 000:024.839   Bootloader: (FW returned invalid version)
T0548 000:025.683   TELNET listener socket opened on port 19021
T0548 000:025.865   WEBSRV WEBSRV_Init(): Starting webserver thread(s)
T0548 000:026.053   WEBSRV Webserver running on local port 19080
T0548 000:026.225   Looking for J-Link GUI Server exe at: C:\Users\wassi\AppData\Local\Keil_v5\ARM\Segger\JLinkGUIServer.exe
T0548 000:026.400   Looking for J-Link GUI Server exe at: C:\Program Files\SEGGER\JLink_V862\JLinkGUIServer.exe
T0548 000:026.460   Forking J-Link GUI Server: C:\Program Files\SEGGER\JLink_V862\JLinkGUIServer.exe
T0548 000:028.854   J-Link GUI Server info: "J-Link GUI server V8.62 "
T0548 000:029.206 - 15.137ms returns "O.K."
T0548 000:029.247 JLINK_GetEmuCaps()
T0548 000:029.268 - 0.016ms returns 0xB9FF7BBF
T0548 000:029.290 JLINK_TIF_GetAvailable(...)
T0548 000:029.450 - 0.162ms 
T0548 000:029.488 JLINK_SetErrorOutHandler(...)
T0548 000:029.505 - 0.016ms 
T0548 000:029.545 JLINK_ExecCommand("ProjectFile = "C:\Users\wassi\OneDrive - Wadix LLC\Wadix-Technologies-Materials\youtube_videos\ARMv8-M_Trust-Zone\projects_secure_to_non-secure\ns_image\build\keil-loader\JLinkSettings.ini"", ...). 
T0548 000:054.076 - 24.533ms returns 0x00
T0548 000:054.136 JLINK_ExecCommand("Device = LPC55S69JBD100:cm33_core0", ...). 
T0548 000:056.739   Device "LPC55S69_M33_0" selected.
T0548 000:057.173 - 3.018ms returns 0x00
T0548 000:057.202 JLINK_ExecCommand("DisableConnectionTimeout", ...). 
T0548 000:057.230   ERROR: Unknown command
T0548 000:057.248 - 0.026ms returns 0x01
T0548 000:057.267 JLINK_GetHardwareVersion()
T0548 000:057.279 - 0.011ms returns 101000
T0548 000:057.297 JLINK_GetDLLVersion()
T0548 000:057.308 - 0.011ms returns 81600
T0548 000:057.325 JLINK_GetOEMString(...)
T0548 000:057.342 JLINK_GetFirmwareString(...)
T0548 000:057.355 - 0.011ms 
T0548 000:057.413 JLINK_GetDLLVersion()
T0548 000:057.429 - 0.015ms returns 81600
T0548 000:057.444 JLINK_GetCompileDateTime()
T0548 000:057.455 - 0.011ms 
T0548 000:057.478 JLINK_GetFirmwareString(...)
T0548 000:057.490 - 0.012ms 
T0548 000:057.512 JLINK_GetHardwareVersion()
T0548 000:057.524 - 0.011ms returns 101000
T0548 000:057.544 JLINK_GetSN()
T0548 000:057.557 - 0.011ms returns 50120556
T0548 000:057.577 JLINK_GetOEMString(...)
T0548 000:057.613 JLINK_TIF_Select(JLINKARM_TIF_SWD)
T0548 000:058.351 - 0.740ms returns 0x00
T0548 000:058.375 JLINK_HasError()
T0548 000:058.398 JLINK_SetSpeed(5000)
T0548 000:058.504 - 0.109ms 
T0548 000:058.525 JLINK_GetId()
T0548 000:058.756   ConfigTargetSettings() start
T0548 000:058.790    J-Link Script File: Executing ConfigTargetSettings()
T0548 000:058.823   Disabling flash programming optimizations: Compare, SkipBlankDataOnProg
T0548 000:058.867   ConfigTargetSettings() end - Took 70us
T0548 000:058.898   InitTarget() start
T0548 000:058.919    J-Link Script File: Executing InitTarget()
T0548 000:059.757   InitTarget() end - Took 822us
T0548 000:060.297   Found SW-DP with ID 0x6BA02477
T0548 000:061.836   DPIDR: 0x6BA02477
T0548 000:061.867   CoreSight SoC-400 or earlier
T0548 000:061.895   Scanning AP map to find all available APs
T0548 000:062.758   AP[3]: Stopped AP scan as end of AP map has been reached
T0548 000:062.789   AP[0]: AHB-AP (IDR: 0x84770001, ADDR: 0x00000000)
T0548 000:062.813   AP[1]: AHB-AP (IDR: 0x84770001, ADDR: 0x01000000)
T0548 000:062.907   AP[2]: JTAG-AP (IDR: 0x002A0000, ADDR: 0x02000000)
T0548 000:062.931   Iterating through AP map to find AHB-AP to use
T0548 000:063.344   AP[0]: Core found
T0548 000:063.374   AP[0]: AHB-AP ROM base: 0xE00FE000
T0548 000:063.590   CPUID register: 0x410FD213. Implementer code: 0x41 (ARM)
T0548 000:063.623   Feature set: Mainline
T0548 000:063.835   Cache: No cache
T0548 000:063.871   Found Cortex-M33 r0p3, Little endian.
T0548 000:064.197   -- Max. mem block: 0x00004598
T0548 000:064.893   
  ***** Warning: 
T0548 000:064.923   Cortex-M (ARMv8-M and later): The connected J-Link (S/N 50120556) uses an old firmware module that does not handle I/D-cache correctly. Proper debugging functionality cannot be guaranteed if cache is enabled
T0548 000:064.956   CPU_ReadMem(4 bytes @ 0xE000EDF0)
T0548 000:065.209   CPU_WriteMem(4 bytes @ 0xE000EDF0)
T0548 000:065.425   CPU_ReadMem(4 bytes @ 0xE0002000)
T0548 000:065.684   FPUnit: 8 code (BP) slots and 0 literal slots
T0548 000:065.712   CPU_ReadMem(4 bytes @ 0xE000EDFC)
T0548 000:065.929   CPU_WriteMem(4 bytes @ 0xE000EDFC)
T0548 000:066.176   CPU_ReadMem(4 bytes @ 0xE0001000)
T0548 000:066.410   CPU_ReadMem(4 bytes @ 0xE0001000)
T0548 000:066.663   CPU_ReadMem(4 bytes @ 0xE0001028)
T0548 000:066.907   CPU_ReadMem(4 bytes @ 0xE0001038)
T0548 000:067.159   CPU_ReadMem(4 bytes @ 0xE0001048)
T0548 000:067.411   CPU_ReadMem(4 bytes @ 0xE0001058)
T0548 000:067.663   CPU_WriteMem(4 bytes @ 0xE0001000)
T0548 000:067.929   CPU_ReadMem(4 bytes @ 0xE000ED88)
T0548 000:068.159   CPU_WriteMem(4 bytes @ 0xE000ED88)
T0548 000:068.428   CPU_ReadMem(4 bytes @ 0xE000ED88)
T0548 000:068.661   CPU_WriteMem(4 bytes @ 0xE000ED88)
T0548 000:068.929   CPU_ReadMem(4 bytes @ 0xE000EFB8)
T0548 000:069.184   Security extension: implemented
T0548 000:069.218   Secure debug: enabled
T0548 000:069.243   CoreSight components:
T0548 000:069.270   ROMTbl[0] @ E00FE000
T0548 000:069.292   CPU_ReadMem(64 bytes @ 0xE00FE000)
T0548 000:073.577   CPU_ReadMem(32 bytes @ 0xE00FFFE0)
T0548 000:073.947   [0][0]: E00FF000 CID B105100D PID 000BB4C9 ROM Table
T0548 000:073.983   ROMTbl[1] @ E00FF000
T0548 000:074.003   CPU_ReadMem(64 bytes @ 0xE00FF000)
T0548 000:074.462   CPU_ReadMem(32 bytes @ 0xE000EFE0)
T0548 000:074.976   CPU_ReadMem(4 bytes @ 0xE000EFBC)
T0548 000:075.311   CPU_ReadMem(4 bytes @ 0xE000EFCC)
T0548 000:075.592   [1][0]: E000E000 CID B105900D PID 000BBD21 DEVARCH 47702A04 DEVTYPE 00 Cortex-M33
T0548 000:075.618   CPU_ReadMem(32 bytes @ 0xE0001FE0)
T0548 000:075.937   CPU_ReadMem(4 bytes @ 0xE0001FBC)
T0548 000:076.278   CPU_ReadMem(4 bytes @ 0xE0001FCC)
T0548 000:076.732   [1][1]: E0001000 CID B105900D PID 000BBD21 DEVARCH 47701A02 DEVTYPE 00 DWT
T0548 000:076.797   CPU_ReadMem(32 bytes @ 0xE0002FE0)
T0548 000:077.254   CPU_ReadMem(4 bytes @ 0xE0002FBC)
T0548 000:077.685   CPU_ReadMem(4 bytes @ 0xE0002FCC)
T0548 000:078.143   [1][2]: E0002000 CID B105900D PID 000BBD21 DEVARCH 47701A03 DEVTYPE 00 FPB
T0548 000:078.225   CPU_ReadMem(32 bytes @ 0xE0000FE0)
T0548 000:078.599   CPU_ReadMem(4 bytes @ 0xE0000FBC)
T0548 000:078.838   CPU_ReadMem(4 bytes @ 0xE0000FCC)
T0548 000:079.230   [1][3]: E0000000 CID B105900D PID 000BBD21 DEVARCH 47701A01 DEVTYPE 43 ITM
T0548 000:079.266   CPU_ReadMem(32 bytes @ 0xE0040FE0)
T0548 000:079.656   CPU_ReadMem(4 bytes @ 0xE0040FBC)
T0548 000:079.912   CPU_ReadMem(4 bytes @ 0xE0040FCC)
T0548 000:080.316   [0][1]: E0040000 CID B105900D PID 000BBD21 DEVARCH 00000000 DEVTYPE 11 TPIU
T0548 000:080.354   SetupTarget() start
T0548 000:080.373    J-Link Script File: Executing SetupTarget()
T0548 000:080.402   CPU_ReadMem(4 bytes @ 0x50000000)
T0548 000:080.684   Disabling flash programming optimizations: Compare, SkipBlankDataOnProg
T0548 000:080.732   SetupTarget() end - Took 347us
T0548 000:080.992 - 22.466ms returns 0x6BA02477
T0548 000:081.025 JLINK_GetDLLVersion()
T0548 000:081.040 - 0.014ms returns 81600
T0548 000:081.063 JLINK_CORE_GetFound()
T0548 000:081.100 - 0.036ms returns 0xE0200FF
T0548 000:081.121 JLINK_GetDebugInfo(0x100 = JLINKARM_ROM_TABLE_ADDR_INDEX)
T0548 000:081.140   Value=0xE00FE000
T0548 000:081.161 - 0.039ms returns 0
T0548 000:081.193 JLINK_GetDebugInfo(0x100 = JLINKARM_ROM_TABLE_ADDR_INDEX)
T0548 000:081.206   Value=0xE00FE000
T0548 000:081.223 - 0.030ms returns 0
T0548 000:081.241 JLINK_GetDebugInfo(0x101 = JLINKARM_DEBUG_INFO_ETM_ADDR_INDEX)
T0548 000:081.254   Value=0x00000000
T0548 000:081.274 - 0.033ms returns 0
T0548 000:081.292 JLINK_ReadMemEx(0xE0041FF0, 0x10 Bytes, Flags = 0x02000004)
T0548 000:081.322   CPU_ReadMem(16 bytes @ 0xE0041FF0)
T0548 000:081.600   Data:  00 00 00 00 00 00 00 00 00 00 00 00 00 00 00 00
T0548 000:081.633 - 0.340ms returns 16 (0x10)
T0548 000:081.652 JLINK_GetDebugInfo(0x102 = JLINKARM_DEBUG_INFO_MTB_ADDR_INDEX)
T0548 000:081.665   Value=0x00000000
T0548 000:081.682 - 0.029ms returns 0
T0548 000:081.698 JLINK_GetDebugInfo(0x103 = JLINKARM_DEBUG_INFO_TPIU_ADDR_INDEX)
T0548 000:081.710   Value=0xE0040000
T0548 000:081.727 - 0.029ms returns 0
T0548 000:081.743 JLINK_GetDebugInfo(0x104 = JLINKARM_DEBUG_INFO_ITM_ADDR_INDEX)
T0548 000:081.755   Value=0xE0000000
T0548 000:081.773 - 0.030ms returns 0
T0548 000:081.789 JLINK_GetDebugInfo(0x105 = JLINKARM_DEBUG_INFO_DWT_ADDR_INDEX)
T0548 000:081.802   Value=0xE0001000
T0548 000:081.819 - 0.030ms returns 0
T0548 000:081.835 JLINK_GetDebugInfo(0x106 = JLINKARM_DEBUG_INFO_FPB_ADDR_INDEX)
T0548 000:081.847   Value=0xE0002000
T0548 000:081.864 - 0.030ms returns 0
T0548 000:081.880 JLINK_GetDebugInfo(0x107 = JLINKARM_DEBUG_INFO_NVIC_ADDR_INDEX)
T0548 000:081.892   Value=0xE000E000
T0548 000:081.909 - 0.029ms returns 0
T0548 000:081.925 JLINK_GetDebugInfo(0x10C = JLINKARM_DEBUG_INFO_DBG_ADDR_INDEX)
T0548 000:081.948   Value=0xE000EDF0
T0548 000:081.965 - 0.040ms returns 0
T0548 000:081.980 JLINK_GetDebugInfo(0x01 = Unknown)
T0548 000:081.992   Value=0x00000001
T0548 000:082.009 - 0.029ms returns 0
T0548 000:082.025 JLINK_ReadMemU32(0xE000ED00, 0x1 Items)
T0548 000:082.045   CPU_ReadMem(4 bytes @ 0xE000ED00)
T0548 000:082.268   Data:  13 D2 0F 41
T0548 000:082.296   Debug reg: CPUID
T0548 000:082.316 - 0.291ms returns 1 (0x1)
T0548 000:082.338 JLINK_GetDebugInfo(0x10F = JLINKARM_DEBUG_INFO_HAS_CORTEX_M_SECURITY_EXT_INDEX)
T0548 000:082.352   Value=0x00000001
T0548 000:082.372 - 0.035ms returns 0
T0548 000:082.391 JLINK_ReadMemU32(0xE000EFB8, 0x1 Items)
T0548 000:082.412   CPU_ReadMem(4 bytes @ 0xE000EFB8)
T0548 000:082.664   Data:  FF 00 00 00
T0548 000:082.690 - 0.299ms returns 1 (0x1)
T0548 000:082.713 JLINK_ReadMemU32(0xE000EDF0, 0x1 Items)
T0548 000:082.732   CPU_ReadMem(4 bytes @ 0xE000EDF0)
T0548 000:083.037   Data:  01 00 10 01
T0548 000:083.062   Debug reg: DHCSR
T0548 000:083.081 - 0.368ms returns 1 (0x1)
T0548 000:083.104 JLINK_ReadMemU32(0xE000EE08, 0x1 Items)
T0548 000:083.125   CPU_ReadMem(4 bytes @ 0xE000EE08)
T0548 000:083.411   Data:  00 00 03 00
T0548 000:083.436   Debug reg: DSCSR
T0548 000:083.456 - 0.351ms returns 1 (0x1)
T0548 000:083.481 JLINK_ReadMemEx(0xE000ED74, 0x4 Bytes, Flags = 0x02000004)
T0548 000:083.502   CPU_ReadMem(4 bytes @ 0xE000ED74)
T0548 000:083.785   Data:  00 00 00 00
T0548 000:083.810 - 0.328ms returns 4 (0x4)
T0548 000:083.878 JLINK_HasError()
T0548 000:083.901 JLINK_SetResetType(JLINKARM_CM3_RESET_TYPE_NORMAL)
T0548 000:083.914 - 0.013ms returns JLINKARM_CM3_RESET_TYPE_NORMAL
T0548 000:083.932 JLINK_Reset()
T0548 000:083.968   ResetTarget() start
T0548 000:083.988    J-Link Script File: Executing ResetTarget()
T0548 000:084.013   Reset strategy selected in debugger ignored. Performing device specific reset.
T0548 000:089.145   Reset handler addr: 0x100000F8
T0548 000:293.092   CPU_ReadMem(4 bytes @ 0xE000EDF0)
T0548 000:294.773   ResetTarget() end - Took 210ms
T0548 000:294.852   Device specific reset executed.
T0548 000:297.254   CPU_ReadMem(4 bytes @ 0xE000EE08)
T0548 000:297.498   CPU_WriteMem(4 bytes @ 0xE0002000)
T0548 000:297.701   CPU_ReadMem(4 bytes @ 0xE000EDFC)
T0548 000:297.959   CPU_ReadMem(4 bytes @ 0xE0001000)
T0548 000:298.189   CPU_ReadMem(4 bytes @ 0xE000EE08)
T0548 000:298.433 - 214.500ms 
T0548 000:298.517 JLINK_HasError()
T0548 000:298.539 JLINK_ReadReg(R15 (PC))
T0548 000:298.553   CPU_ReadMem(4 bytes @ 0xE000EE08)
T0548 000:298.771 - 0.236ms returns 0x100000F8
T0548 000:298.789 JLINK_ReadReg(XPSR)
T0548 000:298.800 - 0.011ms returns 0x29000000
T0548 000:298.812 JLINK_Halt()
T0548 000:298.820 - 0.008ms returns 0x00
T0548 000:298.832 JLINK_ReadMemU32(0xE000EFB8, 0x1 Items)
T0548 000:298.845   CPU_ReadMem(4 bytes @ 0xE000EFB8)
T0548 000:299.068   Data:  FF 00 00 00
T0548 000:299.091 - 0.258ms returns 1 (0x1)
T0548 000:299.108 JLINK_ReadMemU32(0xE000EDF0, 0x1 Items)
T0548 000:299.125   CPU_ReadMem(4 bytes @ 0xE000EDF0)
T0548 000:299.550   Data:  03 00 13 00
T0548 000:299.581   Debug reg: DHCSR
T0548 000:299.594 - 0.485ms returns 1 (0x1)
T0548 000:299.608 JLINK_ReadMemU32(0xE000EDF0, 0x1 Items)
T0548 000:299.620   CPU_ReadMem(4 bytes @ 0xE000EDF0)
T0548 000:299.904   Data:  03 00 13 00
T0548 000:299.921   Debug reg: DHCSR
T0548 000:299.935 - 0.327ms returns 1 (0x1)
T0548 000:299.949 JLINK_WriteU32(0xE000EDF0, 0xA05F0003)
T0548 000:299.971   Debug reg: DHCSR
T0548 000:300.320   CPU_WriteMem(4 bytes @ 0xE000EDF0)
T0548 000:300.551 - 0.601ms returns 0 (0x00000000)
T0548 000:300.569 JLINK_WriteU32(0xE000EDFC, 0x01000000)
T0548 000:300.578   Debug reg: DEMCR
T0548 000:300.609   CPU_WriteMem(4 bytes @ 0xE000EDFC)
T0548 000:300.822 - 0.253ms returns 0 (0x00000000)
T0548 000:300.888 JLINK_GetHWStatus(...)
T0548 000:301.090 - 0.201ms returns 0
T0548 000:301.154 JLINK_GetNumBPUnits(Type = 0xFFFFFF00)
T0548 000:301.164 - 0.010ms returns 0x08
T0548 000:301.175 JLINK_GetNumBPUnits(Type = 0xF0)
T0548 000:301.184 - 0.008ms returns 0x2000
T0548 000:301.195 JLINK_GetNumWPUnits()
T0548 000:301.204 - 0.008ms returns 4
T0548 000:301.230 JLINK_GetSpeed()
T0548 000:301.239 - 0.008ms returns 5000
T0548 000:301.259 JLINK_ReadMemU32(0xE000E004, 0x1 Items)
T0548 000:301.272   CPU_ReadMem(4 bytes @ 0xE000E004)
T0548 000:301.531   Data:  01 00 00 00
T0548 000:301.549 - 0.289ms returns 1 (0x1)
T0548 000:301.576 JLINK_ReadMemU32(0xE000E004, 0x1 Items)
T0548 000:301.588   CPU_ReadMem(4 bytes @ 0xE000E004)
T0548 000:302.034   Data:  01 00 00 00
T0548 000:302.051 - 0.488ms returns 1 (0x1)
T0548 000:302.065 JLINK_WriteMemEx(0xE0001000, 0x0000001C Bytes, Flags = 0x02000004)
T0548 000:302.088   Data:  01 00 00 00 00 00 00 00 00 00 00 00 00 00 00 00 ...
T0548 000:302.106   CPU_WriteMem(28 bytes @ 0xE0001000)
T0548 000:302.503 - 0.437ms returns 0x1C
T0548 000:302.521 JLINK_ReadMemU32(0xE000EFB8, 0x1 Items)
T0548 000:302.533   CPU_ReadMem(4 bytes @ 0xE000EFB8)
T0548 000:302.801   Data:  FF 00 00 00
T0548 000:302.819 - 0.298ms returns 1 (0x1)
T0548 000:302.846 JLINK_ReadMemU32(0xE000EDF0, 0x1 Items)
T0548 000:302.857   CPU_ReadMem(4 bytes @ 0xE000EDF0)
T0548 000:303.156   Data:  03 00 13 00
T0548 000:303.178   Debug reg: DHCSR
T0548 000:303.195 - 0.349ms returns 1 (0x1)
T0548 000:303.213 JLINK_HasError()
T0548 000:303.229 JLINK_ReadReg(R15 (PC))
T0548 000:303.245 - 0.015ms returns 0x100000F8
T0548 000:303.260 JLINK_ReadReg(XPSR)
T0548 000:303.274 - 0.013ms returns 0x29000000
T0548 000:303.484 JLINK_ReadMemU32(0xE000EE08, 0x1 Items)
T0548 000:303.502   Data:  00 00 03 00
T0548 000:303.519   Debug reg: DSCSR
T0548 000:303.536 - 0.052ms returns 1 (0x1)
T0548 000:303.551 JLINK_ReadMemU32(0xE000EFB8, 0x1 Items)
T0548 000:303.565   CPU_ReadMem(4 bytes @ 0xE000EFB8)
T0548 000:303.766   Data:  FF 00 00 00
T0548 000:303.784 - 0.232ms returns 1 (0x1)
T0548 000:303.798 JLINK_ReadMemU32(0xE000EDF0, 0x1 Items)
T0548 000:303.824   CPU_ReadMem(4 bytes @ 0xE000EDF0)
T0548 000:304.017   Data:  03 00 13 00
T0548 000:304.037   Debug reg: DHCSR
T0548 000:304.063 - 0.264ms returns 1 (0x1)
T0548 000:304.085 JLINK_ReadMemU32(0xE000EE08, 0x1 Items)
T0548 000:304.097   Data:  00 00 03 00
T0548 000:304.110   Debug reg: DSCSR
T0548 000:304.122 - 0.037ms returns 1 (0x1)
T0548 000:304.189 JLINK_ReadMemU32(0xE000EFB8, 0x1 Items)
T0548 000:304.200   CPU_ReadMem(4 bytes @ 0xE000EFB8)
T0548 000:304.392   Data:  FF 00 00 00
T0548 000:304.423 - 0.234ms returns 1 (0x1)
T0548 000:304.437 JLINK_ReadMemU32(0xE000EDF0, 0x1 Items)
T0548 000:304.448   CPU_ReadMem(4 bytes @ 0xE000EDF0)
T0548 000:304.651   Data:  03 00 13 00
T0548 000:304.668   Debug reg: DHCSR
T0548 000:304.681 - 0.244ms returns 1 (0x1)
T0548 000:304.697 JLINK_ReadMemU32(0xE000EE08, 0x1 Items)
T0548 000:304.709   Data:  00 00 03 00
T0548 000:304.722   Debug reg: DSCSR
T0548 000:304.748 - 0.051ms returns 1 (0x1)
T0548 000:304.762 JLINK_ReadMemU32(0xE000EFB8, 0x1 Items)
T0548 000:304.797   CPU_ReadMem(4 bytes @ 0xE000EFB8)
T0548 000:305.062   Data:  FF 00 00 00
T0548 000:305.079 - 0.317ms returns 1 (0x1)
T0548 000:305.093 JLINK_ReadMemU32(0xE000EDF0, 0x1 Items)
T0548 000:305.104   CPU_ReadMem(4 bytes @ 0xE000EDF0)
T0548 000:305.530   Data:  03 00 13 00
T0548 000:305.547   Debug reg: DHCSR
T0548 000:305.574 - 0.480ms returns 1 (0x1)
T0548 000:305.589 JLINK_ReadMemU32(0xE000EE08, 0x1 Items)
T0548 000:305.600   Data:  00 00 03 00
T0548 000:305.613   Debug reg: DSCSR
T0548 000:305.625 - 0.036ms returns 1 (0x1)
T0548 000:305.637 JLINK_ReadMemU32(0xE000EFB8, 0x1 Items)
T0548 000:305.647   CPU_ReadMem(4 bytes @ 0xE000EFB8)
T0548 000:305.918   Data:  FF 00 00 00
T0548 000:305.935 - 0.298ms returns 1 (0x1)
T0548 000:305.948 JLINK_ReadMemU32(0xE000EDF0, 0x1 Items)
T0548 000:305.960   CPU_ReadMem(4 bytes @ 0xE000EDF0)
T0548 000:306.280   Data:  03 00 13 00
T0548 000:306.299   Debug reg: DHCSR
T0548 000:306.315 - 0.366ms returns 1 (0x1)
T0548 000:306.332 JLINK_ReadMemU32(0xE000EE08, 0x1 Items)
T0548 000:306.347   Data:  00 00 03 00
T0548 000:306.362   Debug reg: DSCSR
T0548 000:306.377 - 0.045ms returns 1 (0x1)
T0548 000:306.391 JLINK_ReadMemU32(0xE000EFB8, 0x1 Items)
T0548 000:306.404   CPU_ReadMem(4 bytes @ 0xE000EFB8)
T0548 000:306.656   Data:  FF 00 00 00
T0548 000:306.675 - 0.284ms returns 1 (0x1)
T0548 000:306.691 JLINK_ReadMemU32(0xE000EDF0, 0x1 Items)
T0548 000:306.705   CPU_ReadMem(4 bytes @ 0xE000EDF0)
T0548 000:307.032   Data:  03 00 13 00
T0548 000:307.057   Debug reg: DHCSR
T0548 000:307.078 - 0.386ms returns 1 (0x1)
T0548 000:307.120 JLINK_ReadMemU32(0xE000EE08, 0x1 Items)
T0548 000:307.144   Data:  00 00 03 00
T0548 000:307.165   Debug reg: DSCSR
T0548 000:307.186 - 0.066ms returns 1 (0x1)
T0548 000:307.205 JLINK_ReadMemU32(0xE000EFB8, 0x1 Items)
T0548 000:307.223   CPU_ReadMem(4 bytes @ 0xE000EFB8)
T0548 000:307.459   Data:  FF 00 00 00
T0548 000:307.488 - 0.283ms returns 1 (0x1)
T0548 000:307.510 JLINK_ReadMemU32(0xE000EDF0, 0x1 Items)
T0548 000:307.532   CPU_ReadMem(4 bytes @ 0xE000EDF0)
T0548 000:307.891   Data:  03 00 13 00
T0548 000:308.015   Debug reg: DHCSR
T0548 000:308.063 - 0.550ms returns 1 (0x1)
T0548 000:308.121 JLINK_ReadMemU32(0xE000EE08, 0x1 Items)
T0548 000:308.183   Data:  00 00 03 00
T0548 000:308.222   Debug reg: DSCSR
T0548 000:308.249 - 0.127ms returns 1 (0x1)
T0548 000:308.277 JLINK_ReadMemU32(0xE000EFB8, 0x1 Items)
T0548 000:308.324   CPU_ReadMem(4 bytes @ 0xE000EFB8)
T0548 000:308.729   Data:  FF 00 00 00
T0548 000:308.821 - 0.542ms returns 1 (0x1)
T0548 000:308.846 JLINK_ReadMemU32(0xE000EDF0, 0x1 Items)
T0548 000:308.876   CPU_ReadMem(4 bytes @ 0xE000EDF0)
T0548 000:309.236   Data:  03 00 13 00
T0548 000:309.328   Debug reg: DHCSR
T0548 000:309.359 - 0.511ms returns 1 (0x1)
T0548 000:309.416 JLINK_ReadMemU32(0xE000EE08, 0x1 Items)
T0548 000:309.471   Data:  00 00 03 00
T0548 000:309.527   Debug reg: DSCSR
T0548 000:309.576 - 0.159ms returns 1 (0x1)
T0548 000:309.630 JLINK_ReadMemU32(0xE000EFB8, 0x1 Items)
T0548 000:309.676   CPU_ReadMem(4 bytes @ 0xE000EFB8)
T0548 000:310.034   Data:  FF 00 00 00
T0548 000:310.070 - 0.440ms returns 1 (0x1)
T0548 000:310.094 JLINK_ReadMemU32(0xE000EDF0, 0x1 Items)
T0548 000:310.119   CPU_ReadMem(4 bytes @ 0xE000EDF0)
T0548 000:310.382   Data:  03 00 13 00
T0548 000:310.428   Debug reg: DHCSR
T0548 000:310.464 - 0.363ms returns 1 (0x1)
T0548 000:310.500 JLINK_ReadMemU32(0xE000EE08, 0x1 Items)
T0548 000:310.526   Data:  00 00 03 00
T0548 000:310.547   Debug reg: DSCSR
T0548 000:310.567 - 0.066ms returns 1 (0x1)
T0548 000:310.584 JLINK_ReadMemU32(0xE000EFB8, 0x1 Items)
T0548 000:310.604   CPU_ReadMem(4 bytes @ 0xE000EFB8)
T0548 000:310.835   Data:  FF 00 00 00
T0548 000:310.864 - 0.279ms returns 1 (0x1)
T0548 000:310.885 JLINK_ReadMemU32(0xE000EDF0, 0x1 Items)
T0548 000:310.906   CPU_ReadMem(4 bytes @ 0xE000EDF0)
T0548 000:311.120   Data:  03 00 13 00
T0548 000:311.146   Debug reg: DHCSR
T0548 000:311.167 - 0.281ms returns 1 (0x1)
T0548 000:311.193 JLINK_ReadMemU32(0xE000EE08, 0x1 Items)
T0548 000:311.212   Data:  00 00 03 00
T0548 000:311.233   Debug reg: DSCSR
T0548 000:311.253 - 0.060ms returns 1 (0x1)
T0548 000:311.270 JLINK_ReadMemU32(0xE000EFB8, 0x1 Items)
T0548 000:311.288   CPU_ReadMem(4 bytes @ 0xE000EFB8)
T0548 000:311.516   Data:  FF 00 00 00
T0548 000:311.538 - 0.268ms returns 1 (0x1)
T0548 000:311.559 JLINK_ReadMemU32(0xE000EDF0, 0x1 Items)
T0548 000:311.577   CPU_ReadMem(4 bytes @ 0xE000EDF0)
T0548 000:311.802   Data:  03 00 13 00
T0548 000:311.825   Debug reg: DHCSR
T0548 000:311.846 - 0.286ms returns 1 (0x1)
T0548 000:311.867 JLINK_ReadMemU32(0xE000EE08, 0x1 Items)
T0548 000:311.886   Data:  00 00 03 00
T0548 000:311.905   Debug reg: DSCSR
T0548 000:311.925 - 0.058ms returns 1 (0x1)
T0548 000:311.942 JLINK_ReadMemU32(0xE000EFB8, 0x1 Items)
T0548 000:311.960   CPU_ReadMem(4 bytes @ 0xE000EFB8)
T0548 000:312.182   Data:  FF 00 00 00
T0548 000:312.206 - 0.264ms returns 1 (0x1)
T0548 000:312.226 JLINK_ReadMemU32(0xE000EDF0, 0x1 Items)
T0548 000:312.245   CPU_ReadMem(4 bytes @ 0xE000EDF0)
T0548 000:312.448   Data:  03 00 13 00
T0548 000:312.471   Debug reg: DHCSR
T0548 000:312.490 - 0.263ms returns 1 (0x1)
T0548 000:312.511 JLINK_ReadMemU32(0xE000EE08, 0x1 Items)
T0548 000:312.528   Data:  00 00 03 00
T0548 000:312.547   Debug reg: DSCSR
T0548 000:312.566 - 0.055ms returns 1 (0x1)
T0548 000:312.584 JLINK_ReadMemU32(0xE000EFB8, 0x1 Items)
T0548 000:312.600   CPU_ReadMem(4 bytes @ 0xE000EFB8)
T0548 000:312.804   Data:  FF 00 00 00
T0548 000:312.828 - 0.244ms returns 1 (0x1)
T0548 000:312.848 JLINK_ReadMemU32(0xE000EDF0, 0x1 Items)
T0548 000:312.867   CPU_ReadMem(4 bytes @ 0xE000EDF0)
T0548 000:313.072   Data:  03 00 13 00
T0548 000:313.095   Debug reg: DHCSR
T0548 000:313.115 - 0.266ms returns 1 (0x1)
T0548 000:313.137 JLINK_ReadMemU32(0xE000EE08, 0x1 Items)
T0548 000:313.156   Data:  00 00 03 00
T0548 000:313.175   Debug reg: DSCSR
T0548 000:313.195 - 0.057ms returns 1 (0x1)
T0548 000:313.212 JLINK_ReadMemU32(0xE000EFB8, 0x1 Items)
T0548 000:313.230   CPU_ReadMem(4 bytes @ 0xE000EFB8)
T0548 000:313.454   Data:  FF 00 00 00
T0548 000:313.479 - 0.266ms returns 1 (0x1)
T0548 000:313.499 JLINK_ReadMemU32(0xE000EDF0, 0x1 Items)
T0548 000:313.517   CPU_ReadMem(4 bytes @ 0xE000EDF0)
T0548 000:313.728   Data:  03 00 13 00
T0548 000:313.750   Debug reg: DHCSR
T0548 000:313.769 - 0.269ms returns 1 (0x1)
T0548 000:313.791 JLINK_ReadMemU32(0xE000EE08, 0x1 Items)
T0548 000:313.808   Data:  00 00 03 00
T0548 000:313.826   Debug reg: DSCSR
T0548 000:313.845 - 0.053ms returns 1 (0x1)
T0548 000:313.865 JLINK_ReadMemU32(0xE000EFB8, 0x1 Items)
T0548 000:313.885   CPU_ReadMem(4 bytes @ 0xE000EFB8)
T0548 000:314.098   Data:  FF 00 00 00
T0548 000:314.124 - 0.258ms returns 1 (0x1)
T0548 000:314.144 JLINK_ReadMemU32(0xE000EDF0, 0x1 Items)
T0548 000:314.163   CPU_ReadMem(4 bytes @ 0xE000EDF0)
T0548 000:314.365   Data:  03 00 13 00
T0548 000:314.391   Debug reg: DHCSR
T0548 000:314.412 - 0.267ms returns 1 (0x1)
T0548 000:314.432 JLINK_ReadMemU32(0xE000EE08, 0x1 Items)
T0548 000:314.448   Data:  00 00 03 00
T0548 000:314.465   Debug reg: DSCSR
T0548 000:314.481 - 0.049ms returns 1 (0x1)
T0548 000:314.496 JLINK_ReadMemU32(0xE000EFB8, 0x1 Items)
T0548 000:314.509   CPU_ReadMem(4 bytes @ 0xE000EFB8)
T0548 000:314.721   Data:  FF 00 00 00
T0548 000:314.753 - 0.257ms returns 1 (0x1)
T0548 000:314.776 JLINK_ReadMemU32(0xE000EDF0, 0x1 Items)
T0548 000:314.817   CPU_ReadMem(4 bytes @ 0xE000EDF0)
T0548 000:315.017   Data:  03 00 13 00
T0548 000:315.041   Debug reg: DHCSR
T0548 000:315.063 - 0.286ms returns 1 (0x1)
T0548 000:315.083 JLINK_ReadMemU32(0xE000EE08, 0x1 Items)
T0548 000:315.099   Data:  00 00 03 00
T0548 000:315.116   Debug reg: DSCSR
T0548 000:315.133 - 0.050ms returns 1 (0x1)
T0548 000:315.151 JLINK_ReadMemU32(0xE000EFB8, 0x1 Items)
T0548 000:315.167   CPU_ReadMem(4 bytes @ 0xE000EFB8)
T0548 000:315.386   Data:  FF 00 00 00
T0548 000:315.408 - 0.256ms returns 1 (0x1)
T0548 000:315.426 JLINK_ReadMemU32(0xE000EDF0, 0x1 Items)
T0548 000:315.443   CPU_ReadMem(4 bytes @ 0xE000EDF0)
T0548 000:315.646   Data:  03 00 13 00
T0548 000:315.670   Debug reg: DHCSR
